Freq.	I(V1)	I(V1)/(2*pi*freq)	I(V2)	I(V2)/(2*pi*freq)
1.00000000000000e+002	(-4.53916324252565e+001dB,-9.00003076699784e+001°)	(-1.01355229792419e+002dB,-9.00003076699784e+001°)	(-1.00385097427162e+002dB,8.99996908258106e+001°)	(-1.56348694794324e+002dB,8.99996908258106e+001°)
1.00230523807790e+002	(-4.53680216114553e+001dB,-9.00003085075877e+001°)	(-1.01351618978618e+002dB,-9.00003085075877e+001°)	(-1.00361469076709e+002dB,8.99996899847315e+001°)	(-1.56345066443871e+002dB,8.99996899847315e+001°)
1.00461579027840e+002	(-4.53443926172346e+001dB,-9.00003093481256e+001°)	(-1.01347989984397e+002dB,-9.00003093481256e+001°)	(-1.00337822464819e+002dB,8.99996891407159e+001°)	(-1.56341419831981e+002dB,8.99996891407159e+001°)
1.00693166885180e+002	(-4.53207453433942e+001dB,-9.00003101916069e+001°)	(-1.01344342710556e+002dB,-9.00003101916069e+001°)	(-1.00314157491915e+002dB,8.99996882937487e+001°)	(-1.56337754859078e+002dB,8.99996882937487e+001°)
1.00925288607668e+002	(-4.52970796901146e+001dB,-9.00003110380469e+001°)	(-1.01340677057277e+002dB,-9.00003110380469e+001°)	(-1.00290474057804e+002dB,8.99996874438149e+001°)	(-1.56334071424966e+002dB,8.99996874438149e+001°)
1.01157945425990e+002	(-4.52733955569535e+001dB,-9.00003118874608e+001°)	(-1.01336992924116e+002dB,-9.00003118874608e+001°)	(-1.00266772061664e+002dB,8.99996865908990e+001°)	(-1.56330369428826e+002dB,8.99996865908990e+001°)
1.01391138573668e+002	(-4.52496928428402e+001dB,-9.00003127398641e+001°)	(-1.01333290210003e+002dB,-9.00003127398641e+001°)	(-1.00243051402044e+002dB,8.99996857349858e+001°)	(-1.56326648769206e+002dB,8.99996857349858e+001°)
1.01624869287070e+002	(-4.52259714460714e+001dB,-9.00003135952721e+001°)	(-1.01329568813234e+002dB,-9.00003135952721e+001°)	(-1.00219311976860e+002dB,8.99996848760596e+001°)	(-1.56322909344022e+002dB,8.99996848760596e+001°)
1.01859138805412e+002	(-4.52022312643061e+001dB,-9.00003144537007e+001°)	(-1.01325828631468e+002dB,-9.00003144537007e+001°)	(-1.00195553683387e+002dB,8.99996840141049e+001°)	(-1.56319151050550e+002dB,8.99996840141049e+001°)
1.02093948370768e+002	(-4.51784721945611e+001dB,-9.00003153151653e+001°)	(-1.01322069561723e+002dB,-9.00003153151653e+001°)	(-1.00171776418257e+002dB,8.99996831491058e+001°)	(-1.56315373785420e+002dB,8.99996831491058e+001°)
1.02329299228075e+002	(-4.51546941332057e+001dB,-9.00003161796820e+001°)	(-1.01318291500368e+002dB,-9.00003161796820e+001°)	(-1.00147980077453e+002dB,8.99996822810466e+001°)	(-1.56311577444615e+002dB,8.99996822810466e+001°)
1.02565192625141e+002	(-4.51308969759573e+001dB,-9.00003170472666e+001°)	(-1.01314494343120e+002dB,-9.00003170472666e+001°)	(-1.00124164556302e+002dB,8.99996814099112e+001°)	(-1.56307761923464e+002dB,8.99996814099112e+001°)
1.02801629812647e+002	(-4.51070806178760e+001dB,-9.00003179179354e+001°)	(-1.01310677985038e+002dB,-9.00003179179354e+001°)	(-1.00100329749475e+002dB,8.99996805356835e+001°)	(-1.56303927116637e+002dB,8.99996805356835e+001°)
1.03038612044162e+002	(-4.50832449533600e+001dB,-9.00003187917044e+001°)	(-1.01306842320522e+002dB,-9.00003187917044e+001°)	(-1.00076475550976e+002dB,8.99996796583473e+001°)	(-1.56300072918139e+002dB,8.99996796583473e+001°)
1.03276140576140e+002	(-4.50593898761401e+001dB,-9.00003196685900e+001°)	(-1.01302987243302e+002dB,-9.00003196685900e+001°)	(-1.00052601854144e+002dB,8.99996787778863e+001°)	(-1.56296199221306e+002dB,8.99996787778863e+001°)
1.03514216667934e+002	(-4.50355152792749e+001dB,-9.00003205486086e+001°)	(-1.01299112646437e+002dB,-9.00003205486086e+001°)	(-1.00028708551640e+002dB,8.99996778942840e+001°)	(-1.56292305918803e+002dB,8.99996778942840e+001°)
1.03752841581801e+002	(-4.50116210551456e+001dB,-9.00003214317769e+001°)	(-1.01295218422308e+002dB,-9.00003214317769e+001°)	(-1.00004795535449e+002dB,8.99996770075238e+001°)	(-1.56288392902611e+002dB,8.99996770075238e+001°)
1.03992016582906e+002	(-4.49877070954509e+001dB,-9.00003223181115e+001°)	(-1.01291304462613e+002dB,-9.00003223181115e+001°)	(-9.99808626968677e+001dB,8.99996761175890e+001°)	(-1.56284460064030e+002dB,8.99996761175890e+001°)
1.04231742939330e+002	(-4.49637732912014e+001dB,-9.00003232076293e+001°)	(-1.01287370658364e+002dB,-9.00003232076293e+001°)	(-9.99569099265067e+001dB,8.99996752244627e+001°)	(-1.56280507293669e+002dB,8.99996752244627e+001°)
1.04472021922080e+002	(-4.49398195327149e+001dB,-9.00003241003472e+001°)	(-1.01283416899877e+002dB,-9.00003241003472e+001°)	(-9.99329371142799e+001dB,8.99996743281279e+001°)	(-1.56276534481442e+002dB,8.99996743281279e+001°)
1.04712854805090e+002	(-4.49158457096103e+001dB,-9.00003249962822e+001°)	(-1.01279443076773e+002dB,-9.00003249962822e+001°)	(-9.99089441494012e+001dB,8.99996734285676e+001°)	(-1.56272541516563e+002dB,8.99996734285676e+001°)
1.04954242865232e+002	(-4.48918517108029e+001dB,-9.00003258954517e+001°)	(-1.01275449077965e+002dB,-9.00003258954517e+001°)	(-9.98849309203786e+001dB,8.99996725257645e+001°)	(-1.56268528287541e+002dB,8.99996725257645e+001°)
1.05196187382322e+002	(-4.48678374244985e+001dB,-9.00003267978730e+001°)	(-1.01271434791661e+002dB,-9.00003267978730e+001°)	(-9.98608973150090e+001dB,8.99996716197012e+001°)	(-1.56264494682171e+002dB,8.99996716197012e+001°)
1.05438689639126e+002	(-4.48438027381883e+001dB,-9.00003277035634e+001°)	(-1.01267400105351e+002dB,-9.00003277035634e+001°)	(-9.98368432203726e+001dB,8.99996707103604e+001°)	(-1.56260440587535e+002dB,8.99996707103604e+001°)
1.05681750921366e+002	(-4.48197475386429e+001dB,-9.00003286125407e+001°)	(-1.01263344905805e+002dB,-9.00003286125407e+001°)	(-9.98127685228270e+001dB,8.99996697977242e+001°)	(-1.56256365889989e+002dB,8.99996697977242e+001°)
1.05925372517729e+002	(-4.47956717119069e+001dB,-9.00003295248226e+001°)	(-1.01259269079069e+002dB,-9.00003295248226e+001°)	(-9.97886731080024e+001dB,8.99996688817750e+001°)	(-1.56252270475165e+002dB,8.99996688817750e+001°)
1.06169555719872e+002	(-4.47715751432935e+001dB,-9.00003304404270e+001°)	(-1.01255172510456e+002dB,-9.00003304404270e+001°)	(-9.97645568607950e+001dB,8.99996679624949e+001°)	(-1.56248154227957e+002dB,8.99996679624949e+001°)
1.06414301822431e+002	(-4.47474577173782e+001dB,-9.00003313593718e+001°)	(-1.01251055084540e+002dB,-9.00003313593718e+001°)	(-9.97404196653620e+001dB,8.99996670398657e+001°)	(-1.56244017032524e+002dB,8.99996670398657e+001°)
1.06659612123026e+002	(-4.47233193179937e+001dB,-9.00003322816754e+001°)	(-1.01246916685156e+002dB,-9.00003322816754e+001°)	(-9.97162614051154e+001dB,8.99996661138694e+001°)	(-1.56239858772278e+002dB,8.99996661138694e+001°)
1.06905487922266e+002	(-4.46991598282235e+001dB,-9.00003332073558e+001°)	(-1.01242757195386e+002dB,-9.00003332073558e+001°)	(-9.96920819627162e+001dB,8.99996651844877e+001°)	(-1.56235679329879e+002dB,8.99996651844877e+001°)
1.07151930523760e+002	(-4.46749791303964e+001dB,-9.00003341364317e+001°)	(-1.01238576497559e+002dB,-9.00003341364317e+001°)	(-9.96678812200689e+001dB,8.99996642517019e+001°)	(-1.56231478587231e+002dB,8.99996642517019e+001°)
1.07398941234124e+002	(-4.46507771060804e+001dB,-9.00003350689216e+001°)	(-1.01234374473243e+002dB,-9.00003350689216e+001°)	(-9.96436590583150e+001dB,8.99996633154936e+001°)	(-1.56227256425477e+002dB,8.99996633154936e+001°)
1.07646521362983e+002	(-4.46265536360768e+001dB,-9.00003360048441e+001°)	(-1.01230151003239e+002dB,-9.00003360048441e+001°)	(-9.96194153578274e+001dB,8.99996623758440e+001°)	(-1.56223012724990e+002dB,8.99996623758440e+001°)
1.07894672222983e+002	(-4.46023086004140e+001dB,-9.00003369442183e+001°)	(-1.01225905967576e+002dB,-9.00003369442183e+001°)	(-9.95951499982041e+001dB,8.99996614327342e+001°)	(-1.56218747365366e+002dB,8.99996614327342e+001°)
1.08143395129794e+002	(-4.45780418783416e+001dB,-9.00003378870631e+001°)	(-1.01221639245504e+002dB,-9.00003378870631e+001°)	(-9.95708628582623e+001dB,8.99996604861452e+001°)	(-1.56214460225425e+002dB,8.99996604861452e+001°)
1.08392691402120e+002	(-4.45537533483238e+001dB,-9.00003388333977e+001°)	(-1.01217350715486e+002dB,-9.00003388333977e+001°)	(-9.95465538160321e+001dB,8.99996595360576e+001°)	(-1.56210151183194e+002dB,8.99996595360576e+001°)
1.08642562361706e+002	(-4.45294428880339e+001dB,-9.00003397832414e+001°)	(-1.01213040255196e+002dB,-9.00003397832414e+001°)	(-9.95222227487502e+001dB,8.99996585824523e+001°)	(-1.56205820115912e+002dB,8.99996585824523e+001°)
1.08893009333343e+002	(-4.45051103743473e+001dB,-9.00003407366138e+001°)	(-1.01208707741510e+002dB,-9.00003407366138e+001°)	(-9.94978695328536e+001dB,8.99996576253097e+001°)	(-1.56201466900016e+002dB,8.99996576253097e+001°)
1.09144033644875e+002	(-4.44807556833355e+001dB,-9.00003416935343e+001°)	(-1.01204353050498e+002dB,-9.00003416935343e+001°)	(-9.94734940439733e+001dB,8.99996566646102e+001°)	(-1.56197091411136e+002dB,8.99996566646102e+001°)
1.09395636627209e+002	(-4.44563786902596e+001dB,-9.00003426540229e+001°)	(-1.01199976057422e+002dB,-9.00003426540229e+001°)	(-9.94490961569281e+001dB,8.99996557003339e+001°)	(-1.56192693524090e+002dB,8.99996557003339e+001°)
1.09647819614318e+002	(-4.44319792695637e+001dB,-9.00003436180995e+001°)	(-1.01195576636726e+002dB,-9.00003436180995e+001°)	(-9.94246757457176e+001dB,8.99996547324608e+001°)	(-1.56188273112880e+002dB,8.99996547324608e+001°)
1.09900583943252e+002	(-4.44075572948688e+001dB,-9.00003445857841e+001°)	(-1.01191154662031e+002dB,-9.00003445857841e+001°)	(-9.94002326835160e+001dB,8.99996537609710e+001°)	(-1.56183830050678e+002dB,8.99996537609710e+001°)
1.10153930954141e+002	(-4.43831126389655e+001dB,-9.00003455570970e+001°)	(-1.01186710006128e+002dB,-9.00003455570970e+001°)	(-9.93757668426654e+001dB,8.99996527858440e+001°)	(-1.56179364209828e+002dB,8.99996527858440e+001°)
1.10407861990207e+002	(-4.43586451738080e+001dB,-9.00003465320587e+001°)	(-1.01182242540970e+002dB,-9.00003465320587e+001°)	(-9.93512780946691e+001dB,8.99996518070594e+001°)	(-1.56174875461831e+002dB,8.99996518070594e+001°)
1.10662378397766e+002	(-4.43341547705068e+001dB,-9.00003475106898e+001°)	(-1.01177752137669e+002dB,-9.00003475106898e+001°)	(-9.93267663101849e+001dB,8.99996508245967e+001°)	(-1.56170363677347e+002dB,8.99996508245967e+001°)
1.10917481526240e+002	(-4.43096412993223e+001dB,-9.00003484930109e+001°)	(-1.01173238666485e+002dB,-9.00003484930109e+001°)	(-9.93022313590183e+001dB,8.99996498384350e+001°)	(-1.56165828726181e+002dB,8.99996498384350e+001°)
1.11173172728159e+002	(-4.42851046296576e+001dB,-9.00003494790431e+001°)	(-1.01168701996820e+002dB,-9.00003494790431e+001°)	(-9.92776731101153e+001dB,8.99996488485534e+001°)	(-1.56161270477278e+002dB,8.99996488485534e+001°)
1.11429453359173e+002	(-4.42605446300520e+001dB,-9.00003504688074e+001°)	(-1.01164141997214e+002dB,-9.00003504688074e+001°)	(-9.92530914315560e+001dB,8.99996478549309e+001°)	(-1.56156688798718e+002dB,8.99996478549309e+001°)
1.11686324778056e+002	(-4.42359611681734e+001dB,-9.00003514623250e+001°)	(-1.01159558535336e+002dB,-9.00003514623250e+001°)	(-9.92284861905471e+001dB,8.99996468575460e+001°)	(-1.56152083557709e+002dB,8.99996468575460e+001°)
1.11943788346715e+002	(-4.42113541108117e+001dB,-9.00003524596175e+001°)	(-1.01154951477974e+002dB,-9.00003524596175e+001°)	(-9.92038572534151e+001dB,8.99996458563774e+001°)	(-1.56147454620577e+002dB,8.99996458563774e+001°)
1.12201845430196e+002	(-4.41867233238713e+001dB,-9.00003534607063e+001°)	(-1.01150320691034e+002dB,-9.00003534607063e+001°)	(-9.91792044855987e+001dB,8.99996448514035e+001°)	(-1.56142801852761e+002dB,8.99996448514035e+001°)
1.12460497396692e+002	(-4.41620686723641e+001dB,-9.00003544656133e+001°)	(-1.01145666039526e+002dB,-9.00003544656133e+001°)	(-9.91545277516422e+001dB,8.99996438426024e+001°)	(-1.56138125118804e+002dB,8.99996438426024e+001°)
1.12719745617551e+002	(-4.41373900204022e+001dB,-9.00003554743604e+001°)	(-1.01140987387565e+002dB,-9.00003554743604e+001°)	(-9.91298269151877e+001dB,8.99996428299522e+001°)	(-1.56133424282350e+002dB,8.99996428299522e+001°)
1.12979591467279e+002	(-4.41126872311903e+001dB,-9.00003564869698e+001°)	(-1.01136284598353e+002dB,-9.00003564869698e+001°)	(-9.91051018389678e+001dB,8.99996418134307e+001°)	(-1.56128699206130e+002dB,8.99996418134307e+001°)
1.13240036323555e+002	(-4.40879601670185e+001dB,-9.00003575034637e+001°)	(-1.01131557534181e+002dB,-9.00003575034637e+001°)	(-9.90803523847984e+001dB,8.99996407930156e+001°)	(-1.56123949751961e+002dB,8.99996407930156e+001°)
1.13501081567231e+002	(-4.40632086892544e+001dB,-9.00003585238648e+001°)	(-1.01126806056417e+002dB,-9.00003585238648e+001°)	(-9.90555784135708e+001dB,8.99996397686843e+001°)	(-1.56119175780733e+002dB,8.99996397686843e+001°)
1.13762728582343e+002	(-4.40384326583361e+001dB,-9.00003595481956e+001°)	(-1.01122030025498e+002dB,-9.00003595481956e+001°)	(-9.90307797852441e+001dB,8.99996387404143e+001°)	(-1.56114377152406e+002dB,8.99996387404143e+001°)
1.14024978756117e+002	(-4.40136319337640e+001dB,-9.00003605764790e+001°)	(-1.01117229300926e+002dB,-9.00003605764790e+001°)	(-9.90059563588380e+001dB,8.99996377081824e+001°)	(-1.56109553726000e+002dB,8.99996377081824e+001°)
1.14287833478977e+002	(-4.39888063740931e+001dB,-9.00003616087381e+001°)	(-1.01112403741255e+002dB,-9.00003616087381e+001°)	(-9.89811079924243e+001dB,8.99996366719658e+001°)	(-1.56104705359587e+002dB,8.99996366719658e+001°)
1.14551294144553e+002	(-4.39639558369254e+001dB,-9.00003626449962e+001°)	(-1.01107553204088e+002dB,-9.00003626449962e+001°)	(-9.89562345431197e+001dB,8.99996356317411e+001°)	(-1.56099831910282e+002dB,8.99996356317411e+001°)
1.14815362149688e+002	(-4.39390801789017e+001dB,-9.00003636852766e+001°)	(-1.01102677546064e+002dB,-9.00003636852766e+001°)	(-9.89313358670774e+001dB,8.99996345874848e+001°)	(-1.56094933234240e+002dB,8.99996345874848e+001°)
1.15080038894443e+002	(-4.39141792556939e+001dB,-9.00003647296031e+001°)	(-1.01097776622856e+002dB,-9.00003647296031e+001°)	(-9.89064118194793e+001dB,8.99996335391734e+001°)	(-1.56090009186642e+002dB,8.99996335391734e+001°)
1.15345325782109e+002	(-4.38892529219967e+001dB,-9.00003657779993e+001°)	(-1.01092850289159e+002dB,-9.00003657779993e+001°)	(-9.88814622545281e+001dB,8.99996324867829e+001°)	(-1.56085059621690e+002dB,8.99996324867829e+001°)
1.15611224219209e+002	(-4.38643010315192e+001dB,-9.00003668304895e+001°)	(-1.01087898398682e+002dB,-9.00003668304895e+001°)	(-9.88564870254384e+001dB,8.99996314302893e+001°)	(-1.56080084392601e+002dB,8.99996314302893e+001°)
1.15877735615512e+002	(-4.38393234369773e+001dB,-9.00003678870977e+001°)	(-1.01082920804140e+002dB,-9.00003678870977e+001°)	(-9.88314859844293e+001dB,8.99996303696683e+001°)	(-1.56075083351592e+002dB,8.99996303696683e+001°)
1.16144861384034e+002	(-4.38143199900848e+001dB,-9.00003689478485e+001°)	(-1.01077917357247e+002dB,-9.00003689478485e+001°)	(-9.88064589827156e+001dB,8.99996293048955e+001°)	(-1.56070056349878e+002dB,8.99996293048955e+001°)
1.16412602941049e+002	(-4.37892905415450e+001dB,-9.00003700127665e+001°)	(-1.01072887908707e+002dB,-9.00003700127665e+001°)	(-9.87814058704993e+001dB,8.99996282359463e+001°)	(-1.56065003237662e+002dB,8.99996282359463e+001°)
1.16680961706096e+002	(-4.37642349410424e+001dB,-9.00003710818765e+001°)	(-1.01067832308205e+002dB,-9.00003710818765e+001°)	(-9.87563264969614e+001dB,8.99996271627957e+001°)	(-1.56059923864124e+002dB,8.99996271627957e+001°)
1.16949939101987e+002	(-4.37391530372342e+001dB,-9.00003721552035e+001°)	(-1.01062750404396e+002dB,-9.00003721552035e+001°)	(-9.87312207102528e+001dB,8.99996260854188e+001°)	(-1.56054818077415e+002dB,8.99996260854188e+001°)
1.17219536554813e+002	(-4.37140446777411e+001dB,-9.00003732327729e+001°)	(-1.01057642044903e+002dB,-9.00003732327729e+001°)	(-9.87060883574860e+001dB,8.99996250037901e+001°)	(-1.56049685724648e+002dB,8.99996250037901e+001°)
1.17489755493952e+002	(-4.36889097091391e+001dB,-9.00003743146101e+001°)	(-1.01052507076301e+002dB,-9.00003743146101e+001°)	(-9.86809292847262e+001dB,8.99996239178842e+001°)	(-1.56044526651888e+002dB,8.99996239178842e+001°)
1.17760597352080e+002	(-4.36637479769501e+001dB,-9.00003754007408e+001°)	(-1.01047345344112e+002dB,-9.00003754007408e+001°)	(-9.86557433369823e+001dB,8.99996228276754e+001°)	(-1.56039340704145e+002dB,8.99996228276754e+001°)
1.18032063565172e+002	(-4.36385593256333e+001dB,-9.00003764911909e+001°)	(-1.01042156692796e+002dB,-9.00003764911909e+001°)	(-9.86305303581982e+001dB,8.99996217331378e+001°)	(-1.56034127725360e+002dB,8.99996217331378e+001°)
1.18304155572516e+002	(-4.36133435985761e+001dB,-9.00003775859867e+001°)	(-1.01036940965738e+002dB,-9.00003775859867e+001°)	(-9.86052901912430e+001dB,8.99996206342451e+001°)	(-1.56028887558405e+002dB,8.99996206342451e+001°)
1.18576874816716e+002	(-4.35881006380845e+001dB,-9.00003786851543e+001°)	(-1.01031698005247e+002dB,-9.00003786851543e+001°)	(-9.85800226779029e+001dB,8.99996195309711e+001°)	(-1.56023620045065e+002dB,8.99996195309711e+001°)
1.18850222743701e+002	(-4.35628302853744e+001dB,-9.00003797887204e+001°)	(-1.01026427652537e+002dB,-9.00003797887204e+001°)	(-9.85547276588709e+001dB,8.99996184232890e+001°)	(-1.56018325026033e+002dB,8.99996184232890e+001°)
1.19124200802737e+002	(-4.35375323805620e+001dB,-9.00003808967118e+001°)	(-1.01021129747724e+002dB,-9.00003808967118e+001°)	(-9.85294049737383e+001dB,8.99996173111722e+001°)	(-1.56013002340901e+002dB,8.99996173111722e+001°)
1.19398810446427e+002	(-4.35122067626542e+001dB,-9.00003820091556e+001°)	(-1.01015804129816e+002dB,-9.00003820091556e+001°)	(-9.85040544609842e+001dB,8.99996161945934e+001°)	(-1.56007651828146e+002dB,8.99996161945934e+001°)
1.19674053130724e+002	(-4.34868532695393e+001dB,-9.00003831260791e+001°)	(-1.01010450636702e+002dB,-9.00003831260791e+001°)	(-9.84786759579672e+001dB,8.99996150735254e+001°)	(-1.56002273325129e+002dB,8.99996150735254e+001°)
1.19949930314937e+002	(-4.34614717379771e+001dB,-9.00003842475096e+001°)	(-1.01005069105139e+002dB,-9.00003842475096e+001°)	(-9.84532693009144e+001dB,8.99996139479408e+001°)	(-1.55996866668077e+002dB,8.99996139479408e+001°)
1.20226443461741e+002	(-4.34360620035893e+001dB,-9.00003853734751e+001°)	(-1.00999659370752e+002dB,-9.00003853734751e+001°)	(-9.84278343249128e+001dB,8.99996128178116e+001°)	(-1.55991431692075e+002dB,8.99996128178116e+001°)
1.20503594037179e+002	(-4.34106239008495e+001dB,-9.00003865040034e+001°)	(-1.00994221268012e+002dB,-9.00003865040034e+001°)	(-9.84023708638985e+001dB,8.99996116831099e+001°)	(-1.55985968231061e+002dB,8.99996116831099e+001°)
1.20781383510677e+002	(-4.33851572630732e+001dB,-9.00003876391229e+001°)	(-1.00988754630235e+002dB,-9.00003876391229e+001°)	(-9.83768787506473e+001dB,8.99996105438075e+001°)	(-1.55980476117810e+002dB,8.99996105438075e+001°)
1.21059813355048e+002	(-4.33596619224078e+001dB,-9.00003887788619e+001°)	(-1.00983259289570e+002dB,-9.00003887788619e+001°)	(-9.83513578167641e+001dB,8.99996093998759e+001°)	(-1.55974955183926e+002dB,8.99996093998759e+001°)
1.21338885046497e+002	(-4.33341377098226e+001dB,-9.00003899232493e+001°)	(-1.00977735076985e+002dB,-9.00003899232493e+001°)	(-9.83258078926732e+001dB,8.99996082512862e+001°)	(-1.55969405259836e+002dB,8.99996082512862e+001°)
1.21618600064636e+002	(-4.33085844550980e+001dB,-9.00003910723139e+001°)	(-1.00972181822260e+002dB,-9.00003910723139e+001°)	(-9.83002288076077e+001dB,8.99996070980095e+001°)	(-1.55963826174770e+002dB,8.99996070980095e+001°)
1.21898959892486e+002	(-4.32830019868153e+001dB,-9.00003922260851e+001°)	(-1.00966599353978e+002dB,-9.00003922260851e+001°)	(-9.82746203895990e+001dB,8.99996059400165e+001°)	(-1.55958217756761e+002dB,8.99996059400165e+001°)
1.22179966016487e+002	(-4.32573901323463e+001dB,-9.00003933845922e+001°)	(-1.00960987499509e+002dB,-9.00003933845922e+001°)	(-9.82489824654663e+001dB,8.99996047772778e+001°)	(-1.55952579832629e+002dB,8.99996047772778e+001°)
1.22461619926504e+002	(-4.32317487178427e+001dB,-9.00003945478652e+001°)	(-1.00955346085005e+002dB,-9.00003945478652e+001°)	(-9.82233148608061e+001dB,8.99996036097636e+001°)	(-1.55946912227968e+002dB,8.99996036097636e+001°)
