Freq.	-V(n001)/I(V1)	-V(n056)/I(V2)
2.00000000000000e+002	(1.21374058194649e+002dB,-8.99999983146548e+001°)	(1.20365458906746e+002dB,8.99999967824603e+001°)
2.01000000000000e+002	(1.21268432201452e+002dB,-8.99999982931935e+001°)	(1.20411312059053e+002dB,8.99999967967252e+001°)
2.02000000000000e+002	(1.21162232912464e+002dB,-8.99999982713404e+001°)	(1.20456964133433e+002dB,8.99999968108383e+001°)
2.03000000000000e+002	(1.21055443822575e+002dB,-8.99999982490839e+001°)	(1.20502417273746e+002dB,8.99999968248019e+001°)
2.04000000000000e+002	(1.20948048039023e+002dB,-8.99999982264123e+001°)	(1.20547673592676e+002dB,8.99999968386181e+001°)
2.05000000000000e+002	(1.20840028264532e+002dB,-8.99999982033133e+001°)	(1.20592735172354e+002dB,8.99999968522890e+001°)
2.06000000000000e+002	(1.20731366779692e+002dB,-8.99999981797742e+001°)	(1.20637604064948e+002dB,8.99999968658168e+001°)
2.07000000000000e+002	(1.20622045424589e+002dB,-8.99999981557817e+001°)	(1.20682282293250e+002dB,8.99999968792035e+001°)
2.08000000000000e+002	(1.20512045579412e+002dB,-8.99999981313220e+001°)	(1.20726771851246e+002dB,8.99999968924511e+001°)
2.09000000000000e+002	(1.20401348144288e+002dB,-8.99999981063808e+001°)	(1.20771074704671e+002dB,8.99999969055614e+001°)
2.10000000000000e+002	(1.20289933518003e+002dB,-8.99999980809431e+001°)	(1.20815192791550e+002dB,8.99999969185366e+001°)
2.11000000000000e+002	(1.20177781575769e+002dB,-8.99999980549935e+001°)	(1.20859128022731e+002dB,8.99999969313785e+001°)
2.12000000000000e+002	(1.20064871645795e+002dB,-8.99999980285156e+001°)	(1.20902882282397e+002dB,8.99999969440888e+001°)
2.13000000000000e+002	(1.19951182484631e+002dB,-8.99999980014927e+001°)	(1.20946457428578e+002dB,8.99999969566696e+001°)
2.14000000000000e+002	(1.19836692251491e+002dB,-8.99999979739071e+001°)	(1.20989855293637e+002dB,8.99999969691224e+001°)
2.15000000000000e+002	(1.19721378480829e+002dB,-8.99999979457404e+001°)	(1.21033077684759e+002dB,8.99999969814491e+001°)
2.16000000000000e+002	(1.19605218053843e+002dB,-8.99999979169736e+001°)	(1.21076126384413e+002dB,8.99999969936515e+001°)
2.17000000000000e+002	(1.19488187168202e+002dB,-8.99999978875866e+001°)	(1.21119003150821e+002dB,8.99999970057311e+001°)
2.18000000000000e+002	(1.19370261306311e+002dB,-8.99999978575584e+001°)	(1.21161709718400e+002dB,8.99999970176897e+001°)
2.19000000000000e+002	(1.19251415201646e+002dB,-8.99999978268674e+001°)	(1.21204247798204e+002dB,8.99999970295288e+001°)
2.20000000000000e+002	(1.19131622803370e+002dB,-8.99999977954906e+001°)	(1.21246619078353e+002dB,8.99999970412501e+001°)
2.21000000000000e+002	(1.19010857238909e+002dB,-8.99999977634042e+001°)	(1.21288825224451e+002dB,8.99999970528552e+001°)
2.22000000000000e+002	(1.18889090774278e+002dB,-8.99999977305831e+001°)	(1.21330867879998e+002dB,8.99999970643455e+001°)
2.23000000000000e+002	(1.18766294772352e+002dB,-8.99999976970012e+001°)	(1.21372748666788e+002dB,8.99999970757227e+001°)
2.24000000000000e+002	(1.18642439648422e+002dB,-8.99999976626310e+001°)	(1.21414469185300e+002dB,8.99999970869881e+001°)
2.25000000000000e+002	(1.18517494823266e+002dB,-8.99999976274439e+001°)	(1.21456031015086e+002dB,8.99999970981432e+001°)
2.26000000000000e+002	(1.18391428673399e+002dB,-8.99999975914096e+001°)	(1.21497435715140e+002dB,8.99999971091895e+001°)
2.27000000000000e+002	(1.18264208478215e+002dB,-8.99999975544964e+001°)	(1.21538684824268e+002dB,8.99999971201284e+001°)
2.28000000000000e+002	(1.18135800363930e+002dB,-8.99999975166712e+001°)	(1.21579779861442e+002dB,8.99999971309612e+001°)
2.29000000000000e+002	(1.18006169243902e+002dB,-8.99999974778990e+001°)	(1.21620722326154e+002dB,8.99999971416893e+001°)
2.30000000000000e+002	(1.17875278755381e+002dB,-8.99999974381430e+001°)	(1.21661513698760e+002dB,8.99999971523141e+001°)
2.31000000000000e+002	(1.17743091191916e+002dB,-8.99999973973646e+001°)	(1.21702155440810e+002dB,8.99999971628368e+001°)
2.32000000000000e+002	(1.17609567431573e+002dB,-8.99999973555231e+001°)	(1.21742648995380e+002dB,8.99999971732588e+001°)
2.33000000000000e+002	(1.17474666860307e+002dB,-8.99999973125756e+001°)	(1.21782995787393e+002dB,8.99999971835812e+001°)
2.34000000000000e+002	(1.17338347290184e+002dB,-8.99999972684769e+001°)	(1.21823197223932e+002dB,8.99999971938054e+001°)
2.35000000000000e+002	(1.17200564872066e+002dB,-8.99999972231794e+001°)	(1.21863254694547e+002dB,8.99999972039326e+001°)
2.36000000000000e+002	(1.17061274002335e+002dB,-8.99999971766327e+001°)	(1.21903169571558e+002dB,8.99999972139639e+001°)
2.37000000000000e+002	(1.16920427222920e+002dB,-8.99999971287835e+001°)	(1.21942943210349e+002dB,8.99999972239006e+001°)
2.38000000000000e+002	(1.16777975114478e+002dB,-8.99999970795757e+001°)	(1.21982576949656e+002dB,8.99999972337438e+001°)
2.39000000000000e+002	(1.16633866181564e+002dB,-8.99999970289497e+001°)	(1.22022072111850e+002dB,8.99999972434946e+001°)
2.40000000000000e+002	(1.16488046729745e+002dB,-8.99999969768424e+001°)	(1.22061430003211e+002dB,8.99999972531542e+001°)
2.41000000000000e+002	(1.16340460733268e+002dB,-8.99999969231870e+001°)	(1.22100651914203e+002dB,8.99999972627237e+001°)
2.42000000000000e+002	(1.16191049693012e+002dB,-8.99999968679127e+001°)	(1.22139739119739e+002dB,8.99999972722041e+001°)
2.43000000000000e+002	(1.16039752483392e+002dB,-8.99999968109441e+001°)	(1.22178692879437e+002dB,8.99999972815965e+001°)
2.44000000000000e+002	(1.15886505187421e+002dB,-8.99999967522013e+001°)	(1.22217514437876e+002dB,8.99999972909020e+001°)
2.45000000000000e+002	(1.15731240918775e+002dB,-8.99999966915990e+001°)	(1.22256205024848e+002dB,8.99999973001216e+001°)
2.46000000000000e+002	(1.15573889629467e+002dB,-8.99999966290466e+001°)	(1.22294765855601e+002dB,8.99999973092563e+001°)
2.47000000000000e+002	(1.15414377901945e+002dB,-8.99999965644477e+001°)	(1.22333198131075e+002dB,8.99999973183071e+001°)
2.48000000000000e+002	(1.15252628723864e+002dB,-8.99999964976989e+001°)	(1.22371503038141e+002dB,8.99999973272750e+001°)
2.49000000000000e+002	(1.15088561243753e+002dB,-8.99999964286903e+001°)	(1.22409681749828e+002dB,8.99999973361609e+001°)
2.50000000000000e+002	(1.14922090505931e+002dB,-8.99999963573040e+001°)	(1.22447735425552e+002dB,8.99999973449659e+001°)
2.51000000000000e+002	(1.14753127162010e+002dB,-8.99999962834139e+001°)	(1.22485665211331e+002dB,8.99999973536908e+001°)
2.52000000000000e+002	(1.14581577156885e+002dB,-8.99999962068850e+001°)	(1.22523472240005e+002dB,8.99999973623365e+001°)
2.53000000000000e+002	(1.14407341386285e+002dB,-8.99999961275722e+001°)	(1.22561157631448e+002dB,8.99999973709040e+001°)
2.54000000000000e+002	(1.14230315322573e+002dB,-8.99999960453197e+001°)	(1.22598722492776e+002dB,8.99999973793941e+001°)
2.55000000000000e+002	(1.14050388605505e+002dB,-8.99999959599597e+001°)	(1.22636167918551e+002dB,8.99999973878078e+001°)
2.56000000000000e+002	(1.13867444593835e+002dB,-8.99999958713117e+001°)	(1.22673494990978e+002dB,8.99999973961458e+001°)
2.57000000000000e+002	(1.13681359872887e+002dB,-8.99999957791808e+001°)	(1.22710704780105e+002dB,8.99999974044091e+001°)
2.58000000000000e+002	(1.13492003713256e+002dB,-8.99999956833562e+001°)	(1.22747798344014e+002dB,8.99999974125984e+001°)
2.59000000000000e+002	(1.13299237474410e+002dB,-8.99999955836101e+001°)	(1.22784776729009e+002dB,8.99999974207146e+001°)
2.60000000000000e+002	(1.13102913946352e+002dB,-8.99999954796955e+001°)	(1.22821640969801e+002dB,8.99999974287585e+001°)
2.61000000000000e+002	(1.12902876621473e+002dB,-8.99999953713441e+001°)	(1.22858392089690e+002dB,8.99999974367309e+001°)
2.62000000000000e+002	(1.12698958887642e+002dB,-8.99999952582641e+001°)	(1.22895031100741e+002dB,8.99999974446326e+001°)
2.63000000000000e+002	(1.12490983131846e+002dB,-8.99999951401377e+001°)	(1.22931559003964e+002dB,8.99999974524643e+001°)
2.64000000000000e+002	(1.12278759742408e+002dB,-8.99999950166179e+001°)	(1.22967976789478e+002dB,8.99999974602268e+001°)
2.65000000000000e+002	(1.12062085995542e+002dB,-8.99999948873253e+001°)	(1.23004285436685e+002dB,8.99999974679208e+001°)
2.66000000000000e+002	(1.11840744809998e+002dB,-8.99999947518438e+001°)	(1.23040485914432e+002dB,8.99999974755472e+001°)
2.67000000000000e+002	(1.11614503350127e+002dB,-8.99999946097167e+001°)	(1.23076579181172e+002dB,8.99999974831065e+001°)
2.68000000000000e+002	(1.11383111455273e+002dB,-8.99999944604408e+001°)	(1.23112566185127e+002dB,8.99999974905996e+001°)
2.69000000000000e+002	(1.11146299868471e+002dB,-8.99999943034614e+001°)	(1.23148447864440e+002dB,8.99999974980271e+001°)
2.70000000000000e+002	(1.10903778233008e+002dB,-8.99999941381644e+001°)	(1.23184225147331e+002dB,8.99999975053897e+001°)
2.71000000000000e+002	(1.10655232819311e+002dB,-8.99999939638688e+001°)	(1.23219898952243e+002dB,8.99999975126881e+001°)
2.72000000000000e+002	(1.10400323937488e+002dB,-8.99999937798176e+001°)	(1.23255470187996e+002dB,8.99999975199230e+001°)
2.73000000000000e+002	(1.10138682981774e+002dB,-8.99999935851658e+001°)	(1.23290939753925e+002dB,8.99999975270950e+001°)
2.74000000000000e+002	(1.09869909042329e+002dB,-8.99999933789686e+001°)	(1.23326308540027e+002dB,8.99999975342048e+001°)
2.75000000000000e+002	(1.09593565005677e+002dB,-8.99999931601650e+001°)	(1.23361577427099e+002dB,8.99999975412530e+001°)
2.76000000000000e+002	(1.09309173048870e+002dB,-8.99999929275603e+001°)	(1.23396747286876e+002dB,8.99999975482403e+001°)
2.77000000000000e+002	(1.09016209410356e+002dB,-8.99999926798036e+001°)	(1.23431818982163e+002dB,8.99999975551672e+001°)
2.78000000000000e+002	(1.08714098293241e+002dB,-8.99999924153623e+001°)	(1.23466793366970e+002dB,8.99999975620344e+001°)
2.79000000000000e+002	(1.08402204722901e+002dB,-8.99999921324893e+001°)	(1.23501671286643e+002dB,8.99999975688426e+001°)
2.80000000000000e+002	(1.08079826135534e+002dB,-8.99999918291854e+001°)	(1.23536453577986e+002dB,8.99999975755922e+001°)
2.81000000000000e+002	(1.07746182417360e+002dB,-8.99999915031511e+001°)	(1.23571141069394e+002dB,8.99999975822839e+001°)
2.82000000000000e+002	(1.07400404038652e+002dB,-8.99999911517286e+001°)	(1.23605734580970e+002dB,8.99999975889183e+001°)
2.83000000000000e+002	(1.07041517828191e+002dB,-8.99999907718289e+001°)	(1.23640234924649e+002dB,8.99999975954959e+001°)
2.84000000000000e+002	(1.06668429800982e+002dB,-8.99999903598408e+001°)	(1.23674642904317e+002dB,8.99999976020172e+001°)
2.85000000000000e+002	(1.06279904276279e+002dB,-8.99999899115157e+001°)	(1.23708959315927e+002dB,8.99999976084829e+001°)
2.86000000000000e+002	(1.05874538278833e+002dB,-8.99999894218203e+001°)	(1.23743184947612e+002dB,8.99999976148935e+001°)
2.87000000000000e+002	(1.05450729885829e+002dB,-8.99999888847469e+001°)	(1.23777320579803e+002dB,8.99999976212495e+001°)
2.88000000000000e+002	(1.05006638714408e+002dB,-8.99999882930654e+001°)	(1.23811366985335e+002dB,8.99999976275515e+001°)
2.89000000000000e+002	(1.04540136085695e+002dB,-8.99999876379958e+001°)	(1.23845324929557e+002dB,8.99999976338000e+001°)
2.90000000000000e+002	(1.04048741449141e+002dB,-8.99999869087697e+001°)	(1.23879195170441e+002dB,8.99999976399954e+001°)
2.91000000000000e+002	(1.03529540254313e+002dB,-8.99999860920329e+001°)	(1.23912978458687e+002dB,8.99999976461383e+001°)
2.92000000000000e+002	(1.02979076369882e+002dB,-8.99999851710204e+001°)	(1.23946675537825e+002dB,8.99999976522293e+001°)
2.93000000000000e+002	(1.02393208953355e+002dB,-8.99999841243927e+001°)	(1.23980287144318e+002dB,8.99999976582687e+001°)
2.94000000000000e+002	(1.01766918672104e+002dB,-8.99999829245615e+001°)	(1.24013814007660e+002dB,8.99999976642571e+001°)
2.95000000000000e+002	(1.01094040119264e+002dB,-8.99999815352220e+001°)	(1.24047256850479e+002dB,8.99999976701949e+001°)
2.96000000000000e+002	(1.00366883889568e+002dB,-8.99999799076148e+001°)	(1.24080616388629e+002dB,8.99999976760827e+001°)
2.97000000000000e+002	(9.95756887692309e+001dB,-8.99999779746843e+001°)	(1.24113893331287e+002dB,8.99999976819208e+001°)
2.98000000000000e+002	(9.87078032639564e+001dB,-8.99999756416083e+001°)	(1.24147088381050e+002dB,8.99999976877099e+001°)
2.99000000000000e+002	(9.77464182187834e+001dB,-8.99999727697671e+001°)	(1.24180202234019e+002dB,8.99999976934502e+001°)
3.00000000000000e+002	(9.66685182588670e+001dB,-8.99999691481542e+001°)	(1.24213235579897e+002dB,8.99999976991423e+001°)
3.01000000000000e+002	(9.54413919450551e+001dB,-8.99999644390321e+001°)	(1.24246189102077e+002dB,8.99999977047865e+001°)
3.02000000000000e+002	(9.40162814573894e+001dB,-8.99999580659787e+001°)	(1.24279063477726e+002dB,8.99999977103834e+001°)
3.03000000000000e+002	(9.23157961768133e+001dB,-8.99999489577865e+001°)	(1.24311859377873e+002dB,8.99999977159334e+001°)
3.04000000000000e+002	(9.02059016843411e+001dB,-8.99999348725221e+001°)	(1.24344577467496e+002dB,8.99999977214368e+001°)
3.05000000000000e+002	(8.74221867378214e+001dB,-8.99999101968938e+001°)	(1.24377218405602e+002dB,8.99999977268941e+001°)
3.06000000000000e+002	(8.33150451446994e+001dB,-8.99998557914180e+001°)	(1.24409782845313e+002dB,8.99999977323057e+001°)
3.07000000000000e+002	(7.52920331934148e+001dB,-8.99996365156719e+001°)	(1.24442271433941e+002dB,8.99999977376720e+001°)
3.08000000000000e+002	(6.95201626939756e+001dB,8.99992929916823e+001°)	(1.24474684813074e+002dB,8.99999977429935e+001°)
3.09000000000000e+002	(8.14208515266733e+001dB,8.99998202219307e+001°)	(1.24507023618650e+002dB,8.99999977482704e+001°)
3.10000000000000e+002	(8.62516993003476e+001dB,8.99998968326491e+001°)	(1.24539288481037e+002dB,8.99999977535032e+001°)
3.11000000000000e+002	(8.93310541736707e+001dB,8.99999275691106e+001°)	(1.24571480025105e+002dB,8.99999977586923e+001°)
3.12000000000000e+002	(9.15947511708107e+001dB,8.99999441414600e+001°)	(1.24603598870304e+002dB,8.99999977638381e+001°)
3.13000000000000e+002	(9.33846953753885e+001dB,8.99999545070276e+001°)	(1.24635645630736e+002dB,8.99999977689408e+001°)
3.14000000000000e+002	(9.48646480185488e+001dB,8.99999616027643e+001°)	(1.24667620915228e+002dB,8.99999977740010e+001°)
3.15000000000000e+002	(9.61258540621986e+001dB,8.99999667651081e+001°)	(1.24699525327401e+002dB,8.99999977790189e+001°)
3.16000000000000e+002	(9.72244002034408e+001dB,8.99999706895211e+001°)	(1.24731359465745e+002dB,8.99999977839949e+001°)
3.17000000000000e+002	(9.81972385672854e+001dB,8.99999737736237e+001°)	(1.24763123923682e+002dB,8.99999977889294e+001°)
3.18000000000000e+002	(9.90700085297778e+001dB,8.99999762612185e+001°)	(1.24794819289639e+002dB,8.99999977938228e+001°)
3.19000000000000e+002	(9.98612298297062e+001dB,8.99999783101106e+001°)	(1.24826446147110e+002dB,8.99999977986752e+001°)
3.20000000000000e+002	(1.00584716647830e+002dB,8.99999800269531e+001°)	(1.24858005074728e+002dB,8.99999978034872e+001°)
3.21000000000000e+002	(1.01251047983085e+002dB,8.99999814864190e+001°)	(1.24889496646323e+002dB,8.99999978082590e+001°)
3.22000000000000e+002	(1.01868505091265e+002dB,8.99999827423523e+001°)	(1.24920921430995e+002dB,8.99999978129910e+001°)
3.23000000000000e+002	(1.02443692195094e+002dB,8.99999838345565e+001°)	(1.24952279993164e+002dB,8.99999978176835e+001°)
3.24000000000000e+002	(1.02981960792330e+002dB,8.99999847930916e+001°)	(1.24983572892647e+002dB,8.99999978223367e+001°)
3.25000000000000e+002	(1.03487707716764e+002dB,8.99999856410833e+001°)	(1.25014800684706e+002dB,8.99999978269511e+001°)
3.26000000000000e+002	(1.03964589507547e+002dB,8.99999863966134e+001°)	(1.25045963920117e+002dB,8.99999978315270e+001°)
3.27000000000000e+002	(1.04415679792969e+002dB,8.99999870740241e+001°)	(1.25077063145225e+002dB,8.99999978360646e+001°)
3.28000000000000e+002	(1.04843586952761e+002dB,8.99999876848369e+001°)	(1.25108098902003e+002dB,8.99999978405642e+001°)
3.29000000000000e+002	(1.05250543513390e+002dB,8.99999882384140e+001°)	(1.25139071728112e+002dB,8.99999978450262e+001°)
3.30000000000000e+002	(1.05638475052816e+002dB,8.99999887424411e+001°)	(1.25169982156954e+002dB,8.99999978494509e+001°)
3.31000000000000e+002	(1.06009054004712e+002dB,8.99999892032867e+001°)	(1.25200830717731e+002dB,8.99999978538385e+001°)
3.32000000000000e+002	(1.06363742167185e+002dB,8.99999896262727e+001°)	(1.25231617935498e+002dB,8.99999978581894e+001°)
3.33000000000000e+002	(1.06703824647092e+002dB,8.99999900158811e+001°)	(1.25262344331220e+002dB,8.99999978625037e+001°)
3.34000000000000e+002	(1.07030437230713e+002dB,8.99999903759131e+001°)	(1.25293010421820e+002dB,8.99999978667819e+001°)
3.35000000000000e+002	(1.07344588651753e+002dB,8.99999907096139e+001°)	(1.25323616720240e+002dB,8.99999978710242e+001°)
3.36000000000000e+002	(1.07647178857158e+002dB,8.99999910197704e+001°)	(1.25354163735485e+002dB,8.99999978752308e+001°)
3.37000000000000e+002	(1.07939014104027e+002dB,8.99999913087899e+001°)	(1.25384651972681e+002dB,8.99999978794020e+001°)
3.38000000000000e+002	(1.08220819525350e+002dB,8.99999915787621e+001°)	(1.25415081933117e+002dB,8.99999978835381e+001°)
3.39000000000000e+002	(1.08493249657324e+002dB,8.99999918315100e+001°)	(1.25445454114307e+002dB,8.99999978876394e+001°)
3.40000000000000e+002	(1.08756897312711e+002dB,8.99999920686312e+001°)	(1.25475769010026e+002dB,8.99999978917061e+001°)
3.41000000000000e+002	(1.09012301102329e+002dB,8.99999922915316e+001°)	(1.25506027110369e+002dB,8.99999978957385e+001°)
3.42000000000000e+002	(1.09259951844802e+002dB,8.99999925014534e+001°)	(1.25536228901793e+002dB,8.99999978997368e+001°)
3.43000000000000e+002	(1.09500298055983e+002dB,8.99999926994980e+001°)	(1.25566374867164e+002dB,8.99999979037013e+001°)
3.44000000000000e+002	(1.09733750672301e+002dB,8.99999928866458e+001°)	(1.25596465485807e+002dB,8.99999979076322e+001°)
3.45000000000000e+002	(1.09960687132633e+002dB,8.99999930637720e+001°)	(1.25626501233549e+002dB,8.99999979115298e+001°)
3.46000000000000e+002	(1.10181454920704e+002dB,8.99999932316606e+001°)	(1.25656482582765e+002dB,8.99999979153943e+001°)
3.47000000000000e+002	(1.10396374651327e+002dB,8.99999933910159e+001°)	(1.25686410002424e+002dB,8.99999979192259e+001°)
3.48000000000000e+002	(1.10605742769120e+002dB,8.99999935424722e+001°)	(1.25716283958128e+002dB,8.99999979230250e+001°)
3.49000000000000e+002	(1.10809833916738e+002dB,8.99999936866027e+001°)	(1.25746104912163e+002dB,8.99999979267916e+001°)
3.50000000000000e+002	(1.11008903019963e+002dB,8.99999938239262e+001°)	(1.25775873323535e+002dB,8.99999979305261e+001°)
3.51000000000000e+002	(1.11203187129432e+002dB,8.99999939549136e+001°)	(1.25805589648017e+002dB,8.99999979342286e+001°)
3.52000000000000e+002	(1.11392907052199e+002dB,8.99999940799937e+001°)	(1.25835254338185e+002dB,8.99999979378995e+001°)
3.53000000000000e+002	(1.11578268801336e+002dB,8.99999941995569e+001°)	(1.25864867843466e+002dB,8.99999979415388e+001°)
3.54000000000000e+002	(1.11759464887363e+002dB,8.99999943139604e+001°)	(1.25894430610175e+002dB,8.99999979451469e+001°)
3.55000000000000e+002	(1.11936675471818e+002dB,8.99999944235310e+001°)	(1.25923943081554e+002dB,8.99999979487239e+001°)
3.56000000000000e+002	(1.12110069400156e+002dB,8.99999945285684e+001°)	(1.25953405697812e+002dB,8.99999979522701e+001°)
3.57000000000000e+002	(1.12279805128957e+002dB,8.99999946293481e+001°)	(1.25982818896167e+002dB,8.99999979557856e+001°)
3.58000000000000e+002	(1.12446031560102e+002dB,8.99999947261237e+001°)	(1.26012183110881e+002dB,8.99999979592707e+001°)
3.59000000000000e+002	(1.12608888792770e+002dB,8.99999948191291e+001°)	(1.26041498773298e+002dB,8.99999979627256e+001°)
3.60000000000000e+002	(1.12768508803037e+002dB,8.99999949085802e+001°)	(1.26070766311885e+002dB,8.99999979661505e+001°)
3.61000000000000e+002	(1.12925016059042e+002dB,8.99999949946767e+001°)	(1.26099986152264e+002dB,8.99999979695455e+001°)
3.62000000000000e+002	(1.13078528079081e+002dB,8.99999950776038e+001°)	(1.26129158717255e+002dB,8.99999979729109e+001°)
3.63000000000000e+002	(1.13229155938771e+002dB,8.99999951575331e+001°)	(1.26158284426903e+002dB,8.99999979762468e+001°)
3.64000000000000e+002	(1.13377004732796e+002dB,8.99999952346241e+001°)	(1.26187363698524e+002dB,8.99999979795535e+001°)
