Freq.	-V(n001)/I(V1)	-V(n003)/I(V2)
1.00000000000000e+002	(1.53100577150407e+002dB,-9.00000000000000e+001°)	(9.16852194981330e+001dB,8.99999985051441e+001°)
1.00577306300174e+002	(1.53050577150408e+002dB,-9.00000000000000e+001°)	(9.17353049529705e+001dB,8.99999985137099e+001°)
1.01157945425990e+002	(1.53000577150408e+002dB,-9.00000000000000e+001°)	(9.17853913981837e+001dB,8.99999985222263e+001°)
1.01741936618061e+002	(1.52950577150407e+002dB,-9.00000000000000e+001°)	(9.18354788452606e+001dB,8.99999985306939e+001°)
1.02329299228075e+002	(1.52900577150407e+002dB,-9.00000000000000e+001°)	(9.18855673058227e+001dB,8.99999985391127e+001°)
1.02920052719443e+002	(1.52850577150408e+002dB,-9.00000000000000e+001°)	(9.19356567916265e+001dB,8.99999985474831e+001°)
1.03514216667934e+002	(1.52800577150407e+002dB,-9.00000000000000e+001°)	(9.19857473145651e+001dB,8.99999985558054e+001°)
1.04111810762334e+002	(1.52750577150407e+002dB,-9.00000000000000e+001°)	(9.20358388866698e+001dB,8.99999985640798e+001°)
1.04712854805090e+002	(1.52700577150409e+002dB,-9.00000000000000e+001°)	(9.20859315201117e+001dB,8.99999985723067e+001°)
1.05317368712972e+002	(1.52650577150405e+002dB,-9.00000000000000e+001°)	(9.21360252272035e+001dB,8.99999985804862e+001°)
1.05925372517729e+002	(1.52600577150408e+002dB,-9.00000000000000e+001°)	(9.21861200204008e+001dB,8.99999985886187e+001°)
1.06536886366756e+002	(1.52550577150407e+002dB,-9.00000000000000e+001°)	(9.22362159123043e+001dB,8.99999985967045e+001°)
1.07151930523761e+002	(1.52500577150407e+002dB,-9.00000000000000e+001°)	(9.22863129156607e+001dB,8.99999986047437e+001°)
1.07770525369432e+002	(1.52450577150409e+002dB,-9.00000000000000e+001°)	(9.23364110433653e+001dB,8.99999986127367e+001°)
1.08392691402120e+002	(1.52400577150407e+002dB,-9.00000000000000e+001°)	(9.23865103084631e+001dB,8.99999986206837e+001°)
1.09018449238513e+002	(1.52350577150407e+002dB,-9.00000000000000e+001°)	(9.24366107241508e+001dB,8.99999986285850e+001°)
1.09647819614319e+002	(1.52300577150405e+002dB,-9.00000000000000e+001°)	(9.24867123037785e+001dB,8.99999986364409e+001°)
1.10280823384955e+002	(1.52250577150408e+002dB,-9.00000000000000e+001°)	(9.25368150608515e+001dB,8.99999986442516e+001°)
1.10917481526240e+002	(1.52200577150408e+002dB,-9.00000000000000e+001°)	(9.25869190090322e+001dB,8.99999986520174e+001°)
1.11557815135085e+002	(1.52150577150407e+002dB,-9.00000000000000e+001°)	(9.26370241621418e+001dB,8.99999986597384e+001°)
1.12201845430196e+002	(1.52100577150407e+002dB,-9.00000000000000e+001°)	(9.26871305341623e+001dB,8.99999986674151e+001°)
1.12849593752776e+002	(1.52050577150407e+002dB,-9.00000000000000e+001°)	(9.27372381392381e+001dB,8.99999986750477e+001°)
1.13501081567232e+002	(1.52000577150407e+002dB,-9.00000000000000e+001°)	(9.27873469916783e+001dB,8.99999986826363e+001°)
1.14156330461885e+002	(1.51950577150408e+002dB,-9.00000000000000e+001°)	(9.28374571059583e+001dB,8.99999986901812e+001°)
1.14815362149688e+002	(1.51900577150407e+002dB,-9.00000000000000e+001°)	(9.28875684967219e+001dB,8.99999986976828e+001°)
1.15478198468946e+002	(1.51850577150407e+002dB,-9.00000000000000e+001°)	(9.29376811787832e+001dB,8.99999987051412e+001°)
1.16144861384034e+002	(1.51800577150407e+002dB,-9.00000000000000e+001°)	(9.29877951671286e+001dB,8.99999987125567e+001°)
1.16815372986133e+002	(1.51750577150408e+002dB,-9.00000000000000e+001°)	(9.30379104769188e+001dB,8.99999987199295e+001°)
1.17489755493953e+002	(1.51700577150407e+002dB,-9.00000000000000e+001°)	(9.30880271234910e+001dB,8.99999987272600e+001°)
1.18168031254479e+002	(1.51650577150409e+002dB,-9.00000000000000e+001°)	(9.31381451223607e+001dB,8.99999987345482e+001°)
1.18850222743702e+002	(1.51600577150407e+002dB,-9.00000000000000e+001°)	(9.31882644892238e+001dB,8.99999987417945e+001°)
1.19536352567372e+002	(1.51550577150407e+002dB,-9.00000000000000e+001°)	(9.32383852399592e+001dB,8.99999987489991e+001°)
1.20226443461742e+002	(1.51500577150408e+002dB,-9.00000000000000e+001°)	(9.32885073906301e+001dB,8.99999987561623e+001°)
1.20920518294321e+002	(1.51450577150407e+002dB,-9.00000000000000e+001°)	(9.33386309574870e+001dB,8.99999987632842e+001°)
1.21618600064637e+002	(1.51400577150408e+002dB,-9.00000000000000e+001°)	(9.33887559569691e+001dB,8.99999987703652e+001°)
1.22320711904993e+002	(1.51350577150407e+002dB,-9.00000000000000e+001°)	(9.34388824057074e+001dB,8.99999987774054e+001°)
1.23026877081238e+002	(1.51300577150407e+002dB,-9.00000000000000e+001°)	(9.34890103205259e+001dB,8.99999987844051e+001°)
1.23737118993536e+002	(1.51250577150407e+002dB,-9.00000000000000e+001°)	(9.35391397184449e+001dB,8.99999987913645e+001°)
1.24451461177139e+002	(1.51200577150407e+002dB,-9.00000000000000e+001°)	(9.35892706166825e+001dB,8.99999987982839e+001°)
1.25169927303173e+002	(1.51150577150409e+002dB,-9.00000000000000e+001°)	(9.36394030326574e+001dB,8.99999988051634e+001°)
1.25892541179417e+002	(1.51100577150407e+002dB,-9.00000000000000e+001°)	(9.36895369839909e+001dB,8.99999988120034e+001°)
1.26619326751095e+002	(1.51050577150407e+002dB,-9.00000000000000e+001°)	(9.37396724885096e+001dB,8.99999988188040e+001°)
1.27350308101666e+002	(1.51000577150407e+002dB,-9.00000000000000e+001°)	(9.37898095642474e+001dB,8.99999988255654e+001°)
1.28085509453628e+002	(1.50950577150407e+002dB,-9.00000000000000e+001°)	(9.38399482294485e+001dB,8.99999988322879e+001°)
1.28824955169314e+002	(1.50900577150407e+002dB,-9.00000000000000e+001°)	(9.38900885025693e+001dB,8.99999988389718e+001°)
1.29568669751702e+002	(1.50850577150407e+002dB,-9.00000000000000e+001°)	(9.39402304022812e+001dB,8.99999988456171e+001°)
1.30316677845230e+002	(1.50800577150407e+002dB,-9.00000000000000e+001°)	(9.39903739474730e+001dB,8.99999988522242e+001°)
1.31069004236608e+002	(1.50750577150407e+002dB,-9.00000000000000e+001°)	(9.40405191572533e+001dB,8.99999988587933e+001°)
1.31825673855641e+002	(1.50700577150407e+002dB,-9.00000000000000e+001°)	(9.40906660509537e+001dB,8.99999988653246e+001°)
1.32586711776056e+002	(1.50650577150408e+002dB,-9.00000000000000e+001°)	(9.41408146481306e+001dB,8.99999988718182e+001°)
1.33352143216333e+002	(1.50600577150408e+002dB,-9.00000000000000e+001°)	(9.41909649685682e+001dB,8.99999988782745e+001°)
1.34121993540538e+002	(1.50550577150407e+002dB,-9.00000000000000e+001°)	(9.42411170322813e+001dB,8.99999988846936e+001°)
1.34896288259166e+002	(1.50500577150407e+002dB,-9.00000000000000e+001°)	(9.42912708595179e+001dB,8.99999988910757e+001°)
1.35675053029987e+002	(1.50450577150407e+002dB,-9.00000000000000e+001°)	(9.43414264707618e+001dB,8.99999988974211e+001°)
1.36458313658893e+002	(1.50400577150409e+002dB,-9.00000000000000e+001°)	(9.43915838867355e+001dB,8.99999989037300e+001°)
1.37246096100757e+002	(1.50350577150408e+002dB,-9.00000000000000e+001°)	(9.44417431284029e+001dB,8.99999989100025e+001°)
1.38038426460289e+002	(1.50300577150407e+002dB,-9.00000000000000e+001°)	(9.44919042169722e+001dB,8.99999989162389e+001°)
1.38835330992905e+002	(1.50250577150407e+002dB,-9.00000000000000e+001°)	(9.45420671738991e+001dB,8.99999989224394e+001°)
1.39636836105594e+002	(1.50200577150407e+002dB,-9.00000000000000e+001°)	(9.45922320208888e+001dB,8.99999989286042e+001°)
1.40442968357795e+002	(1.50150577150407e+002dB,-9.00000000000000e+001°)	(9.46423987798999e+001dB,8.99999989347335e+001°)
1.41253754462276e+002	(1.50100577150407e+002dB,-9.00000000000000e+001°)	(9.46925674731468e+001dB,8.99999989408274e+001°)
1.42069221286019e+002	(1.50050577150407e+002dB,-9.00000000000000e+001°)	(9.47427381231029e+001dB,8.99999989468863e+001°)
1.42889395851111e+002	(1.50000577150408e+002dB,-9.00000000000000e+001°)	(9.47929107525036e+001dB,8.99999989529103e+001°)
1.43714305335640e+002	(1.49950577150407e+002dB,-9.00000000000000e+001°)	(9.48430853843494e+001dB,8.99999989588996e+001°)
1.44543977074593e+002	(1.49900577150407e+002dB,-9.00000000000000e+001°)	(9.48932620419090e+001dB,8.99999989648544e+001°)
1.45378438560767e+002	(1.49850577150407e+002dB,-9.00000000000000e+001°)	(9.49434407487224e+001dB,8.99999989707749e+001°)
1.46217717445672e+002	(1.49800577150407e+002dB,-9.00000000000000e+001°)	(9.49936215286041e+001dB,8.99999989766612e+001°)
1.47061841540457e+002	(1.49750577150408e+002dB,-9.00000000000000e+001°)	(9.50438044056465e+001dB,8.99999989825137e+001°)
1.47910838816821e+002	(1.49700577150408e+002dB,-9.00000000000000e+001°)	(9.50939894042228e+001dB,8.99999989883325e+001°)
1.48764737407951e+002	(1.49650577150408e+002dB,-9.00000000000000e+001°)	(9.51441765489907e+001dB,8.99999989941177e+001°)
1.49623565609444e+002	(1.49600577150407e+002dB,-9.00000000000000e+001°)	(9.51943658648955e+001dB,8.99999989998696e+001°)
1.50487351880252e+002	(1.49550577150408e+002dB,-9.00000000000000e+001°)	(9.52445573771734e+001dB,8.99999990055883e+001°)
1.51356124843621e+002	(1.49500577150408e+002dB,-9.00000000000000e+001°)	(9.52947511113553e+001dB,8.99999990112741e+001°)
1.52229913288043e+002	(1.49450577150408e+002dB,-9.00000000000000e+001°)	(9.53449470932700e+001dB,8.99999990169271e+001°)
1.53108746168204e+002	(1.49400577150407e+002dB,-9.00000000000000e+001°)	(9.53951453490474e+001dB,8.99999990225476e+001°)
1.53992652605950e+002	(1.49350577150407e+002dB,-9.00000000000000e+001°)	(9.54453459051227e+001dB,8.99999990281357e+001°)
1.54881661891249e+002	(1.49300577150407e+002dB,-9.00000000000000e+001°)	(9.54955487882396e+001dB,8.99999990336915e+001°)
1.55775803483161e+002	(1.49250577150407e+002dB,-9.00000000000000e+001°)	(9.55457540254539e+001dB,8.99999990392154e+001°)
1.56675107010816e+002	(1.49200577150406e+002dB,-9.00000000000000e+001°)	(9.55959616441373e+001dB,8.99999990447074e+001°)
1.57579602274393e+002	(1.49150577150407e+002dB,-9.00000000000000e+001°)	(9.56461716719812e+001dB,8.99999990501677e+001°)
1.58489319246112e+002	(1.49100577150407e+002dB,-9.00000000000000e+001°)	(9.56963841370001e+001dB,8.99999990555966e+001°)
1.59404288071222e+002	(1.49050577150407e+002dB,-9.00000000000000e+001°)	(9.57465990675357e+001dB,8.99999990609941e+001°)
1.60324539069005e+002	(1.49000577150407e+002dB,-9.00000000000000e+001°)	(9.57968164922610e+001dB,8.99999990663606e+001°)
1.61250102733775e+002	(1.48950577150407e+002dB,-9.00000000000000e+001°)	(9.58470364401835e+001dB,8.99999990716961e+001°)
1.62181009735894e+002	(1.48900577150407e+002dB,-9.00000000000000e+001°)	(9.58972589406498e+001dB,8.99999990770009e+001°)
1.63117290922785e+002	(1.48850577150407e+002dB,-9.00000000000000e+001°)	(9.59474840233493e+001dB,8.99999990822750e+001°)
1.64058977319955e+002	(1.48800577150407e+002dB,-9.00000000000000e+001°)	(9.59977117183182e+001dB,8.99999990875188e+001°)
1.65006100132024e+002	(1.48750577150407e+002dB,-9.00000000000000e+001°)	(9.60479420559436e+001dB,8.99999990927323e+001°)
1.65958690743757e+002	(1.48700577150407e+002dB,-9.00000000000000e+001°)	(9.60981750669679e+001dB,8.99999990979157e+001°)
1.66916780721107e+002	(1.48650577150407e+002dB,-9.00000000000000e+001°)	(9.61484107824928e+001dB,8.99999991030693e+001°)
1.67880401812257e+002	(1.48600577150407e+002dB,-9.00000000000000e+001°)	(9.61986492339832e+001dB,8.99999991081931e+001°)
1.68849585948676e+002	(1.48550577150408e+002dB,-9.00000000000000e+001°)	(9.62488904532723e+001dB,8.99999991132874e+001°)
1.69824365246175e+002	(1.48500577150407e+002dB,-9.00000000000000e+001°)	(9.62991344725651e+001dB,8.99999991183523e+001°)
1.70804772005972e+002	(1.48450577150407e+002dB,-9.00000000000000e+001°)	(9.63493813244433e+001dB,8.99999991233880e+001°)
1.71790838715760e+002	(1.48400577150408e+002dB,-9.00000000000000e+001°)	(9.63996310418695e+001dB,8.99999991283946e+001°)
1.72782598050787e+002	(1.48350577150406e+002dB,-9.00000000000000e+001°)	(9.64498836581920e+001dB,8.99999991333724e+001°)
1.73780082874938e+002	(1.48300577150407e+002dB,-9.00000000000000e+001°)	(9.65001392071489e+001dB,8.99999991383214e+001°)
1.74783326241823e+002	(1.48250577150407e+002dB,-9.00000000000000e+001°)	(9.65503977228732e+001dB,8.99999991432419e+001°)
1.75792361395870e+002	(1.48200577150407e+002dB,-9.00000000000000e+001°)	(9.66006592398969e+001dB,8.99999991481340e+001°)
1.76807221773433e+002	(1.48150577150407e+002dB,-9.00000000000000e+001°)	(9.66509237931565e+001dB,8.99999991529978e+001°)
1.77827941003893e+002	(1.48100577150407e+002dB,-9.00000000000000e+001°)	(9.67011914179969e+001dB,8.99999991578336e+001°)
1.78854552910778e+002	(1.48050577150407e+002dB,-9.00000000000000e+001°)	(9.67514621501768e+001dB,8.99999991626414e+001°)
1.79887091512880e+002	(1.48000577150408e+002dB,-9.00000000000000e+001°)	(9.68017360258735e+001dB,8.99999991674216e+001°)
1.80925591025383e+002	(1.47950577150407e+002dB,-9.00000000000000e+001°)	(9.68520130816878e+001dB,8.99999991721741e+001°)
1.81970085860999e+002	(1.47900577150407e+002dB,-9.00000000000000e+001°)	(9.69022933546489e+001dB,8.99999991768992e+001°)
1.83020610631107e+002	(1.47850577150407e+002dB,-9.00000000000000e+001°)	(9.69525768822196e+001dB,8.99999991815970e+001°)
1.84077200146897e+002	(1.47800577150407e+002dB,-9.00000000000000e+001°)	(9.70028637023016e+001dB,8.99999991862677e+001°)
1.85139889420528e+002	(1.47750577150407e+002dB,-9.00000000000000e+001°)	(9.70531538532403e+001dB,8.99999991909115e+001°)
1.86208713666288e+002	(1.47700577150407e+002dB,-9.00000000000000e+001°)	(9.71034473738302e+001dB,8.99999991955284e+001°)
1.87283708301756e+002	(1.47650577150407e+002dB,-9.00000000000000e+001°)	(9.71537443033206e+001dB,8.99999992001187e+001°)
1.88364908948981e+002	(1.47600577150408e+002dB,-9.00000000000000e+001°)	(9.72040446814204e+001dB,8.99999992046824e+001°)
1.89452351435660e+002	(1.47550577150407e+002dB,-9.00000000000000e+001°)	(9.72543485483039e+001dB,8.99999992092198e+001°)
1.90546071796326e+002	(1.47500577150407e+002dB,-9.00000000000000e+001°)	(9.73046559446163e+001dB,8.99999992137310e+001°)
1.91646106273540e+002	(1.47450577150407e+002dB,-9.00000000000000e+001°)	(9.73549669114792e+001dB,8.99999992182161e+001°)
1.92752491319095e+002	(1.47400577150407e+002dB,-9.00000000000000e+001°)	(9.74052814904962e+001dB,8.99999992226754e+001°)
1.93865263595222e+002	(1.47350577150407e+002dB,-9.00000000000000e+001°)	(9.74555997237589e+001dB,8.99999992271088e+001°)
1.94984459975806e+002	(1.47300577150406e+002dB,-9.00000000000000e+001°)	(9.75059216538521e+001dB,8.99999992315167e+001°)
1.96110117547606e+002	(1.47250577150407e+002dB,-9.00000000000000e+001°)	(9.75562473238606e+001dB,8.99999992358991e+001°)
1.97242273611487e+002	(1.47200577150407e+002dB,-9.00000000000000e+001°)	(9.76065767773741e+001dB,8.99999992402562e+001°)
1.98380965683652e+002	(1.47150577150407e+002dB,-9.00000000000000e+001°)	(9.76569100584939e+001dB,8.99999992445881e+001°)
1.99526231496889e+002	(1.47100577150407e+002dB,-9.00000000000000e+001°)	(9.77072472118389e+001dB,8.99999992488949e+001°)
2.00678109001820e+002	(1.47050577150407e+002dB,-9.00000000000000e+001°)	(9.77575882825513e+001dB,8.99999992531769e+001°)
2.01836636368157e+002	(1.47000577150407e+002dB,-9.00000000000000e+001°)	(9.78079333163034e+001dB,8.99999992574341e+001°)
2.03001851985970e+002	(1.46950577150407e+002dB,-9.00000000000000e+001°)	(9.78582823593035e+001dB,8.99999992616667e+001°)
2.04173794466954e+002	(1.46900577150407e+002dB,-9.00000000000000e+001°)	(9.79086354583025e+001dB,8.99999992658748e+001°)
2.05352502645716e+002	(1.46850577150407e+002dB,-9.00000000000000e+001°)	(9.79589926606003e+001dB,8.99999992700586e+001°)
2.06538015581054e+002	(1.46800577150407e+002dB,-9.00000000000000e+001°)	(9.80093540140523e+001dB,8.99999992742182e+001°)
2.07730372557258e+002	(1.46750577150407e+002dB,-9.00000000000000e+001°)	(9.80597195670759e+001dB,8.99999992783538e+001°)
2.08929613085405e+002	(1.46700577150407e+002dB,-9.00000000000000e+001°)	(9.81100893686576e+001dB,8.99999992824655e+001°)
2.10135776904676e+002	(1.46650577150407e+002dB,-9.00000000000000e+001°)	(9.81604634683593e+001dB,8.99999992865533e+001°)
2.11348903983666e+002	(1.46600577150408e+002dB,-9.00000000000000e+001°)	(9.82108419163255e+001dB,8.99999992906175e+001°)
2.12569034521712e+002	(1.46550577150407e+002dB,-9.00000000000000e+001°)	(9.82612247632899e+001dB,8.99999992946583e+001°)
2.13796208950225e+002	(1.46500577150406e+002dB,-9.00000000000000e+001°)	(9.83116120605829e+001dB,8.99999992986756e+001°)
2.15030467934027e+002	(1.46450577150407e+002dB,-9.00000000000000e+001°)	(9.83620038601385e+001dB,8.99999993026697e+001°)
2.16271852372704e+002	(1.46400577150407e+002dB,-9.00000000000000e+001°)	(9.84124002145011e+001dB,8.99999993066407e+001°)
2.17520403401954e+002	(1.46350577150407e+002dB,-9.00000000000000e+001°)	(9.84628011768337e+001dB,8.99999993105887e+001°)
2.18776162394957e+002	(1.46300577150407e+002dB,-9.00000000000000e+001°)	(9.85132068009242e+001dB,8.99999993145138e+001°)
2.20039170963742e+002	(1.46250577150407e+002dB,-9.00000000000000e+001°)	(9.85636171411939e+001dB,8.99999993184163e+001°)
2.21309470960566e+002	(1.46200577150407e+002dB,-9.00000000000000e+001°)	(9.86140322527042e+001dB,8.99999993222961e+001°)
2.22587104479302e+002	(1.46150577150407e+002dB,-9.00000000000000e+001°)	(9.86644521911650e+001dB,8.99999993261535e+001°)
2.23872113856836e+002	(1.46100577150407e+002dB,-9.00000000000000e+001°)	(9.87148770129418e+001dB,8.99999993299886e+001°)
2.25164541674464e+002	(1.46050577150407e+002dB,-9.00000000000000e+001°)	(9.87653067750641e+001dB,8.99999993338014e+001°)
2.26464430759308e+002	(1.46000577150407e+002dB,-9.00000000000000e+001°)	(9.88157415352329e+001dB,8.99999993375922e+001°)
2.27771824185734e+002	(1.45950577150408e+002dB,-9.00000000000000e+001°)	(9.88661813518291e+001dB,8.99999993413610e+001°)
2.29086765276779e+002	(1.45900577150407e+002dB,-9.00000000000000e+001°)	(9.89166262839213e+001dB,8.99999993451080e+001°)
2.30409297605586e+002	(1.45850577150408e+002dB,-9.00000000000000e+001°)	(9.89670763912745e+001dB,8.99999993488333e+001°)
2.31739464996850e+002	(1.45800577150407e+002dB,-9.00000000000000e+001°)	(9.90175317343579e+001dB,8.99999993525370e+001°)
2.33077311528266e+002	(1.45750577150407e+002dB,-9.00000000000000e+001°)	(9.90679923743538e+001dB,8.99999993562193e+001°)
2.34422881531994e+002	(1.45700577150407e+002dB,-9.00000000000000e+001°)	(9.91184583731660e+001dB,8.99999993598802e+001°)
2.35776219596127e+002	(1.45650577150407e+002dB,-9.00000000000000e+001°)	(9.91689297934282e+001dB,8.99999993635199e+001°)
2.37137370566168e+002	(1.45600577150408e+002dB,-9.00000000000000e+001°)	(9.92194066985133e+001dB,8.99999993671385e+001°)
2.38506379546513e+002	(1.45550577150408e+002dB,-9.00000000000000e+001°)	(9.92698891525420e+001dB,8.99999993707361e+001°)
2.39883291901951e+002	(1.45500577150407e+002dB,-9.00000000000000e+001°)	(9.93203772203914e+001dB,8.99999993743129e+001°)
2.41268153259165e+002	(1.45450577150407e+002dB,-9.00000000000000e+001°)	(9.93708709677049e+001dB,8.99999993778689e+001°)
2.42661009508244e+002	(1.45400577150407e+002dB,-9.00000000000000e+001°)	(9.94213704609008e+001dB,8.99999993814043e+001°)
2.44061906804200e+002	(1.45350577150407e+002dB,-9.00000000000000e+001°)	(9.94718757671819e+001dB,8.99999993849192e+001°)
2.45470891568505e+002	(1.45300577150407e+002dB,-9.00000000000000e+001°)	(9.95223869545447e+001dB,8.99999993884138e+001°)
2.46888010490623e+002	(1.45250577150407e+002dB,-9.00000000000000e+001°)	(9.95729040917893e+001dB,8.99999993918880e+001°)
2.48313310529559e+002	(1.45200577150407e+002dB,-9.00000000000000e+001°)	(9.96234272485288e+001dB,8.99999993953421e+001°)
2.49746838915417e+002	(1.45150577150407e+002dB,-9.00000000000000e+001°)	(9.96739564951993e+001dB,8.99999993987762e+001°)
2.51188643150960e+002	(1.45100577150407e+002dB,-9.00000000000000e+001°)	(9.97244919030696e+001dB,8.99999994021903e+001°)
2.52638771013192e+002	(1.45050577150408e+002dB,-9.00000000000000e+001°)	(9.97750335442516e+001dB,8.99999994055846e+001°)
2.54097270554933e+002	(1.45000577150407e+002dB,-9.00000000000000e+001°)	(9.98255814917100e+001dB,8.99999994089593e+001°)
2.55564190106416e+002	(1.44950577150407e+002dB,-9.00000000000000e+001°)	(9.98761358192730e+001dB,8.99999994123143e+001°)
